#  HZ   S   DB   R     50.00 
! Rohde & Schwarz ZVA40 4Ports - Version 4.11 - 1145.1110k42 SN: 100302
! Date: 2022-08-19 12:22:20
! Measurements: S11 S21 S12 S22 
! 
 1.000000000000000E9    -1.670851504154856   1.782927824994820E1  -3.676880084221338E1  -3.596795580201821E1  -3.681088669950356E1  -3.500747847991491E1  -1.785684526094525   1.526986952907858E1  
 1.010000000000000E9    -1.678891154031271   6.779283613510716  -3.631562044813343E1  -4.992797257912836E1  -3.635677191246374E1  -4.875856117789866E1  -1.794233115599082   4.049120902572037  
 1.020000000000000E9    -1.687651432186203  -4.287554710202243  -3.621186642415115E1  -6.290116610636115E1  -3.626048269000257E1  -6.192458310424956E1  -1.797811690262952  -7.190881540519215  
 1.030000000000000E9    -1.710523879344850  -1.518210769212903E1  -3.567554043610743E1  -7.311406068729092E1  -3.571817329481635E1  -7.229599099530890E1  -1.808100603387355  -1.823125353801711E1  
 1.040000000000000E9    -1.725502781997559  -2.587695979337656E1  -3.480201422348011E1  -8.686797457917577E1  -3.483962663605162E1  -8.646915180398852E1  -1.809068922496936  -2.926219898064609E1  
 1.050000000000000E9    -1.716014024081431  -3.654207880407722E1  -3.424047802922942E1  -1.017851871919955E2  -3.428197311546594E1  -1.014416497870539E2  -1.806366291911255  -4.013141835800639E1  
 1.060000000000000E9    -1.713840464332838  -4.701341573562827E1  -3.375943381902749E1  -1.163736755083303E2  -3.381024398637263E1  -1.160396503161987E2  -1.805688804759043  -5.093786266182043E1  
 1.070000000000000E9    -1.716865443651789  -5.732466335548714E1  -3.332376804728443E1  -1.306095973959907E2  -3.336495826249261E1  -1.299412089386924E2  -1.811834701544739  -6.152949751599757E1  
 1.080000000000000E9    -1.710172586889921  -6.744127104286282E1  -3.301313495880984E1  -1.454458528236756E2  -3.305310797793761E1  -1.446225645783500E2  -1.825972633583240  -7.201500181172889E1  
 1.090000000000000E9    -1.700448745675494  -7.742839948352190E1  -3.272800584432418E1  -1.582970063550232E2  -3.276749486665936E1  -1.573905930366852E2  -1.851023055135956  -8.225927660910710E1  
 1.100000000000000E9    -1.702095399630014  -8.715522196267639E1  -3.234100458353248E1  -1.713928951939910E2  -3.238415473048255E1  -1.703427246294785E2  -1.881573949275037  -9.227593185767250E1  
 1.110000000000000E9    -1.695467066639844  -9.675866440865211E1  -3.192131688946861E1   1.755699290377358E2  -3.196055421991666E1   1.768113929536517E2  -1.910767548264668  -1.020790986889670E2  
 1.120000000000000E9    -1.712697523348617  -1.062154067522876E2  -3.166861606086327E1   1.609713455133254E2  -3.168517651165310E1   1.624008372249186E2  -1.957954753851925  -1.116103440430222E2  
 1.130000000000000E9    -1.712044824670065  -1.155149607506554E2  -3.160738031271416E1   1.492875628962639E2  -3.161939235080349E1   1.506608007370093E2  -1.996030628053909  -1.209259711408761E2  
 1.140000000000000E9    -1.733627146977748  -1.245961589401488E2  -3.140741941302688E1   1.373282941548204E2  -3.143815417094417E1   1.387964694633093E2  -2.026003267390591  -1.299452645602804E2  
 1.150000000000000E9    -1.747178586036685  -1.336967347730200E2  -3.124560732953052E1   1.253344081049468E2  -3.127202527659209E1   1.268709947582486E2  -2.053511335308409  -1.387650318786146E2  
 1.160000000000000E9    -1.759716730179077  -1.426069381381301E2  -3.118376015981743E1   1.137521958464442E2  -3.122665202891326E1   1.154374899016644E2  -2.071155374434115  -1.474784239452332E2  
 1.170000000000000E9    -1.755728109507530  -1.514954301054779E2  -3.120793558026286E1   1.039051618545860E2  -3.125402992765432E1   1.056816864136968E2  -2.075798424572971  -1.558611494244296E2  
 1.180000000000000E9    -1.772442577766306  -1.603847581986935E2  -3.104574134754635E1   9.430327563419202E1  -3.110137543325452E1   9.607383445408779E1  -2.062998523282863  -1.642873178166432E2  
 1.190000000000000E9    -1.791814463769545  -1.691072374116213E2  -3.092665760517397E1   8.449093681713700E1  -3.098528090648207E1   8.626643707922285E1  -2.055668727001176  -1.725967833118764E2  
 1.200000000000000E9    -1.810286440683675  -1.776800965857560E2  -3.095124737977184E1   7.587184041130774E1  -3.100668351413440E1   7.782271024082233E1  -2.059983713028261   1.792177720905698E2  
 1.210000000000000E9    -1.844221040859741   1.737818385196483E2  -3.074143323862968E1   6.877041244070199E1  -3.079511143603300E1   7.080846669216643E1  -2.060017237848095   1.711315651301181E2  
 1.220000000000000E9    -1.885668519541194   1.653841592276210E2  -3.017361607648840E1   6.140932759136673E1  -3.021863115154094E1   6.354694988863961E1  -2.083009797242192   1.630062922195352E2  
 1.230000000000000E9    -1.928806129505472   1.569813293058024E2  -2.975871607628627E1   5.209167251993608E1  -2.979485987451795E1   5.427910715989666E1  -2.120841595357317   1.552303783992449E2  
 1.240000000000000E9    -1.992390992016381   1.487507496706859E2  -2.923214618420921E1   4.275988534409676E1  -2.926633078736591E1   4.492415233654629E1  -2.136279267051472   1.474570925365014E2  
 1.250000000000000E9    -2.058928247142429   1.407446518268228E2  -2.878166315724438E1   3.144398459922307E1  -2.883051359107601E1   3.352892438346267E1  -2.175756161939335   1.396039103629010E2  
 1.260000000000000E9    -2.114188883345443   1.328034981604300E2  -2.888870781703729E1   2.202886989809174E1  -2.895912224467076E1   2.399416907833637E1  -2.243346323372812   1.318655831301389E2  
 1.270000000000000E9    -2.178324157984022   1.248243358912664E2  -2.833853793212466E1   1.363110806851192E1  -2.841081911637783E1   1.547459285276745E1  -2.322520772941910   1.241458839081598E2  
 1.280000000000000E9    -2.272289414497701   1.169494278291068E2  -2.811587007371413E1   3.049566398214820  -2.817894374813249E1   4.809949486134608  -2.436603617020602   1.166487960377472E2  
 1.290000000000000E9    -2.374536025734685   1.093122882785788E2  -2.782471360146884E1  -6.461941192696860  -2.786783935743215E1  -4.663455741529299  -2.546146973499651   1.092841610069296E2  
 1.300000000000000E9    -2.486926373394582   1.014967261532069E2  -2.735908088981056E1  -1.810001005919423E1  -2.740751414353657E1  -1.640732169923367E1  -2.651413010834439   1.019532680011533E2  
 1.310000000000000E9    -2.674355539946561   9.398455249330868E1  -2.728722427617903E1  -3.194384957402998E1  -2.733575393994595E1  -3.032843564603499E1  -2.780852312605799   9.460868390325636E1  
 1.320000000000000E9    -2.861858426669730   8.681593445108506E1  -2.760009999554885E1  -4.619994027024389E1  -2.765031610137878E1  -4.454560364896773E1  -2.968306602901377   8.752456974895293E1  
 1.330000000000000E9    -3.037792377344390   7.987345860134226E1  -2.856061465574498E1  -6.119729677116267E1  -2.860235834994075E1  -5.964512444340017E1  -3.094871821293617   8.085120156939421E1  
 1.340000000000000E9    -3.207920461331998   7.319028719689358E1  -3.037347214770232E1  -7.255458826310856E1  -3.044283821897534E1  -7.098050788786270E1  -3.220821557739532   7.402166109175377E1  
 1.350000000000000E9    -3.324205935298890   6.671998798914787E1  -3.360602289225864E1  -7.507340753983205E1  -3.368138705846976E1  -7.354034627074752E1  -3.367948353235029   6.763035885656220E1  
 1.360000000000000E9    -3.384027594809713   6.006772614111860E1  -3.500315463545042E1  -5.759316718735568E1  -3.509643415369614E1  -5.588418698556899E1  -3.441660057898528   6.096772437840509E1  
 1.370000000000000E9    -3.428460770534688   5.323997493486467E1  -3.303121546404947E1  -4.421271004343086E1  -3.308881005199460E1  -4.242666641530184E1  -3.561705933046627   5.432747112981688E1  
 1.380000000000000E9    -3.525023256019576   4.619544886961561E1  -3.119739146405296E1  -4.579625359287849E1  -3.124023517654229E1  -4.388946568106030E1  -3.682027315314617   4.815255243318686E1  
 1.390000000000000E9    -3.581812563262793   3.915005506527494E1  -2.928203119302472E1  -4.631453595521700E1  -2.931821451509167E1  -4.451841658277636E1  -3.715280924109389   4.199409892283376E1  
 1.400000000000000E9    -3.687830518093850   3.214703406339695E1  -2.699223759704319E1  -5.600737800123198E1  -2.701179778264969E1  -5.448107588345893E1  -3.745036061358319   3.548261906132007E1  
 1.410000000000000E9    -3.795060870171376   2.490768060061578E1  -2.585119426511305E1  -7.010783784016040E1  -2.587274789550790E1  -6.870891706468579E1  -3.795549726484573   2.880604013494809E1  
 1.420000000000000E9    -3.952439728116538   1.784078890375256E1  -2.522803921628897E1  -8.117725324824869E1  -2.525197661564523E1  -7.985847382042009E1  -3.874153311700038   2.257462746635475E1  
 1.430000000000000E9    -4.102961302337596   1.121500513741075E1  -2.445973919358924E1  -9.290943617572529E1  -2.449238499923995E1  -9.159225709783352E1  -3.895297458114972   1.592185973328130E1  
 1.440000000000000E9    -4.232605200735073   4.269125801232413  -2.431583827774448E1  -1.041233265874235E2  -2.433854265454202E1  -1.027923453495479E2  -4.037066061921423   9.797944106636098  
 1.450000000000000E9    -4.472443000103276  -2.450592801851665  -2.393074926346019E1  -1.127650435344250E2  -2.394679135663144E1  -1.114131028727643E2  -4.081569189288288   3.462992221872555  
 1.460000000000000E9    -4.704292469274966  -8.498866750521518  -2.334079775845284E1  -1.214448589830712E2  -2.335928019034434E1  -1.200665879100382E2  -4.156496090852176  -2.877196189326858  
 1.470000000000000E9    -4.912289498155771  -1.406634340469294E1  -2.246087467346554E1  -1.323685437205197E2  -2.249092987508005E1  -1.310449969167903E2  -4.279049757403209  -9.173435873680345  
 1.480000000000000E9    -5.115969356165934  -1.929214504304089E1  -2.201084417946071E1  -1.455233941305828E2  -2.202308879834189E1  -1.441409926675827E2  -4.399171099057170  -1.528253420324950E1  
 1.490000000000000E9    -5.235809029189489  -2.380398820137760E1  -2.178427888484838E1  -1.600771103808189E2  -2.180364050329391E1  -1.586735896310264E2  -4.545727670285453  -2.095518808250469E1  
 1.500000000000000E9    -5.191954946925277  -2.841977966539612E1  -2.218670044855454E1  -1.730916764763320E2  -2.220775435166853E1  -1.714610249535385E2  -4.618275590095553  -2.605211746727051E1  
 1.510000000000000E9    -5.032355520113680  -3.438389156310189E1  -2.261219071853765E1  -1.795246466937516E2  -2.264022868804410E1  -1.778880716557791E2  -4.520236173080286  -3.142503749598057E1  
 1.520000000000000E9    -5.115416062329555  -4.014072379869265E1  -2.201849570239480E1   1.719681045668150E2  -2.205776001179664E1   1.737630841405195E2  -4.475277312538743  -3.765353639236610E1  
 1.530000000000000E9    -5.120884885205602  -4.560858316407690E1  -2.152037085322881E1   1.598897342983612E2  -2.156860662097902E1   1.617733969248914E2  -4.469534578072162  -4.378715265115689E1  
 1.540000000000000E9    -5.059923986309936  -5.080239353917813E1  -2.147413175737822E1   1.460563557633174E2  -2.151921013084364E1   1.481056594925122E2  -4.446301020462550  -4.965361658142932E1  
 1.550000000000000E9    -4.953572158675562  -5.609080413402519E1  -2.176843566607602E1   1.329456703844526E2  -2.181993670488810E1   1.351127125437428E2  -4.375550545707794  -5.591234136276449E1  
 1.560000000000000E9    -4.819510270934583  -6.180427533809105E1  -2.208984471179739E1   1.208476479399534E2  -2.214259773825361E1   1.231583204427609E2  -4.305605020772606  -6.192536334494325E1  
 1.570000000000000E9    -4.632733301877422  -6.790439402552569E1  -2.284131865753486E1   1.107048699759942E2  -2.288588071868325E1   1.130876460328384E2  -4.180585579275787  -6.877803761043018E1  
 1.580000000000000E9    -4.527234923989240  -7.428794062959935E1  -2.313775435416137E1   1.021889294576421E2  -2.318181205837020E1   1.047517799169961E2  -4.169034826951173  -7.537425492995828E1  
 1.590000000000000E9    -4.429652937900882  -8.040516675334888E1  -2.336993527290014E1   9.231076616178714E1  -2.339444801858024E1   9.496293024073032E1  -4.098288412131378  -8.192470807197256E1  
 1.600000000000000E9    -4.285101789115561  -8.660995101394229E1  -2.380732286311820E1   8.250985938148031E1  -2.383276092311887E1   8.531813134327072E1  -4.071782751098168  -8.850163833735070E1  
 1.610000000000000E9    -4.184313798968989  -9.302887629752746E1  -2.396751561563375E1   7.293852998795332E1  -2.399647447351684E1   7.574969013810821E1  -3.996015570467194  -9.496038917914783E1  
 1.620000000000000E9    -4.018082860255041  -9.914365083020725E1  -2.443157279330423E1   6.340698205696299E1  -2.448247807756155E1   6.619072894948390E1  -3.900572612384355  -1.014074021331459E2  
 1.630000000000000E9    -3.857376880788868  -1.059210072839848E2  -2.463585126386775E1   5.403871871880693E1  -2.469571271424226E1   5.669899229705356E1  -3.838508892093373  -1.083585705765941E2  
 1.640000000000000E9    -3.737661404868667  -1.123915601597608E2  -2.509955283926077E1   4.190038608245920E1  -2.515322927952458E1   4.442458731955431E1  -3.789455232026706  -1.148806634458951E2  
 1.650000000000000E9    -3.564677307172273  -1.190262659562900E2  -2.576218653298535E1   3.037896169417505E1  -2.583712362312178E1   3.276294427364120E1  -3.733743779966853  -1.216165998693491E2  
 1.660000000000000E9    -3.429095704543619  -1.259673439050729E2  -2.715001349628563E1   1.973197880184424E1  -2.721943613242717E1   2.218417173096281E1  -3.682951308980008  -1.283947704721364E2  
 1.670000000000000E9    -3.347485908755064  -1.330530963829156E2  -2.804437268700496E1   1.601241103067463E1  -2.811298000571263E1   1.857063637579175E1  -3.658262776986367  -1.352883863655619E2  
 1.680000000000000E9    -3.288086422419997  -1.397532790553837E2  -2.857513054503876E1   7.164825943748390  -2.863905194882919E1   9.698388088557953  -3.657842043660336  -1.419942192201666E2  
 1.690000000000000E9    -3.269580420506456  -1.466204747864845E2  -2.945939725281700E1   1.741272593230845  -2.952372127071125E1   4.361254991413349  -3.630983861902351  -1.486522237674036E2  
 1.700000000000000E9    -3.272550473262199  -1.529325955280098E2  -2.967041213821328E1  -5.597021283944339  -2.972830532088818E1  -2.920272584859131  -3.599855420095266  -1.555522330703693E2  
 1.710000000000000E9    -3.253893244661668  -1.592072502466935E2  -3.060132671274975E1  -1.615225000434376E1  -3.067010522029064E1  -1.358918629396358E1  -3.615215170697646  -1.623229783092972E2  
 1.720000000000000E9    -3.241557096153653  -1.655087449941885E2  -3.210631400185027E1  -2.497334570641436E1  -3.218412586981096E1  -2.269926667521740E1  -3.585222827795332  -1.688259610140956E2  
 1.730000000000000E9    -3.210066752659279  -1.716324582936907E2  -3.352771829761243E1  -2.555492493312902E1  -3.362008272067795E1  -2.335759369601397E1  -3.532824094944585  -1.756298756524929E2  
 1.740000000000000E9    -3.188348580997408  -1.778788325480342E2  -3.452224149098635E1  -3.163818176772595E1  -3.464041949935460E1  -2.924676371857261E1  -3.486198171494490   1.773933239802137E2  
 1.750000000000000E9    -3.160064029808597   1.757677425723243E2  -3.536498166327539E1  -3.000222125671992E1  -3.546736488005539E1  -2.750162268653515E1  -3.474609101731132   1.705585442939522E2  
 1.760000000000000E9    -3.171668222437972   1.694599788955029E2  -3.585623815211948E1  -3.731391483099549E1  -3.594265919782714E1  -3.479222332547045E1  -3.468428419878380   1.639452330422807E2  
 1.770000000000000E9    -3.186458379513083   1.635605415490548E2  -3.803030195696100E1  -4.136929000797186E1  -3.810053543112689E1  -3.894720758134662E1  -3.421508656717926   1.572780854128885E2  
 1.780000000000000E9    -3.156805503330171   1.577198771198535E2  -3.974749030972264E1  -3.655786692181255E1  -3.979701840533824E1  -3.415638132185124E1  -3.397216182979148   1.507359541036531E2  
 1.790000000000000E9    -3.081096319795280   1.517000210397126E2  -4.082177273361847E1  -1.788643807019198E1  -4.086207562934493E1  -1.554506001471337E1  -3.345217329773119   1.442471494579609E2  
 1.800000000000000E9    -3.014351912553943   1.453153935682309E2  -3.911906261880669E1  -1.160965824698133E1  -3.918013301446812E1  -9.634312495137444  -3.310614015828350   1.376302344568519E2  
 1.810000000000000E9    -2.994977626223903   1.389052588715172E2  -3.826634521837531E1  -1.179641011771895E1  -3.832030563137596E1  -9.851521970158691  -3.285597829133608   1.312221168519571E2  
 1.820000000000000E9    -2.988143359089619   1.325560993990299E2  -3.727135812608339E1  -4.059813081327091  -3.732537773788025E1  -2.355200965309849  -3.254488870952978   1.248358359289609E2  
 1.830000000000000E9    -3.000254561227554   1.263593882464932E2  -3.503153573987024E1  -1.293131505052771E1  -3.508739635663748E1  -1.151588560744150E1  -3.231706518380523   1.182200467619565E2  
 1.840000000000000E9    -2.991727956536525   1.202989503673833E2  -3.459636672847454E1  -1.985825399032726E1  -3.466574895027425E1  -1.880454588706163E1  -3.271416082481123   1.118053235506582E2  
 1.850000000000000E9    -3.002798748143591   1.140632278362518E2  -3.356809738735866E1  -2.311019475592210E1  -3.363615510931881E1  -2.227014003001958E1  -3.297477827489786   1.057154800684810E2  
 1.860000000000000E9    -2.997614781600037   1.080270793322361E2  -3.309799364082387E1  -3.851172394272417E1  -3.316126543011625E1  -3.822089562328585E1  -3.325086986418933   9.934395803334286E1  
 1.870000000000000E9    -3.013297843939467   1.018287113880323E2  -3.402297956662288E1  -4.301176929210001E1  -3.408971352294007E1  -4.325227923964175E1  -3.387914672837344   9.315664421735617E1  
 1.880000000000000E9    -3.041051018353235   9.570212005090470E1  -3.373487970016230E1  -4.252651610473674E1  -3.380356677604453E1  -4.301328348960627E1  -3.424729263857539   8.709143668471288E1  
 1.890000000000000E9    -3.092868003892860   8.954953943753637E1  -3.339627882296318E1  -4.664019276511564E1  -3.345949328698026E1  -4.760098393573868E1  -3.458542046537771   8.085889310609288E1  
 1.900000000000000E9    -3.153715034307209   8.361537751600969E1  -3.332810699970904E1  -4.651241774403854E1  -3.338817846785893E1  -4.767845529144521E1  -3.494021217615036   7.445595241233511E1  
 1.910000000000000E9    -3.203603013159731   7.746657640864868E1  -3.186985860776496E1  -4.805557029853964E1  -3.193497717044404E1  -4.947574775127751E1  -3.535869032287389   6.781271336438827E1  
 1.920000000000000E9    -3.266173703916388   7.126630812664500E1  -3.044033495438890E1  -5.600647933963413E1  -3.050476278323925E1  -5.761700673637165E1  -3.638924369487417   6.123433419994829E1  
 1.930000000000000E9    -3.343549886628872   6.508216694075081E1  -2.985261250183545E1  -6.361048452032868E1  -2.991699097226078E1  -6.515174503916857E1  -3.722035196695570   5.476930952229027E1  
 1.940000000000000E9    -3.460401050926911   5.861581344825554E1  -2.883151084129059E1  -7.365529612636365E1  -2.890425714691311E1  -7.498553751615513E1  -3.799663164458126   4.795408057205115E1  
 1.950000000000000E9    -3.585294963592504   5.239695668104140E1  -2.862043594277069E1  -8.605795339801199E1  -2.868316961651023E1  -8.699306449227218E1  -3.940722940221350   4.104593069162938E1  
 1.960000000000000E9    -3.764254580251991   4.581047740078795E1  -2.863974210295961E1  -9.208590503905590E1  -2.867665361191589E1  -9.272381749104943E1  -4.079526281322288   3.445237500368953E1  
 1.970000000000000E9    -3.979696065491007   3.976267003964178E1  -2.810648828278707E1  -1.015985226103551E2  -2.813889974209262E1  -1.018818226843555E2  -4.264336957897668   2.760632819641060E1  
 1.980000000000000E9    -4.180629216014535   3.346185043841911E1  -2.839187746322537E1  -1.096665898180310E2  -2.842168206265881E1  -1.097447240755369E2  -4.484741524580363   2.179915693741535E1  
 1.990000000000000E9    -4.443625099755037   2.783135755098363E1  -2.787126004806284E1  -1.096847560891254E2  -2.791340558354304E1  -1.083791602158789E2  -4.544169375769548   1.600528269661227E1  
