!Agilent Technologies,N5230A,MY46400442,A.07.50.57
!Agilent N5230A: A.07.50.57
!Date: Thursday, July 28, 2022 03:10:03
!Correction: S11(Full 1 Port(1)) 
!S1P File: Measurement: S11:
# Hz S  dB   R 50
800000000  -2.649335e+000  -1.016611e+002 
826000000  -3.276189e+000  -1.114376e+002 
852000000  -5.317620e+000  -1.138230e+002 
878000000  -6.041333e+000  -1.146950e+002 
904000000  -1.050257e+001  -1.287170e+002 
930000000  -1.242078e+001  -4.502735e+001 
956000000  -5.335038e+000  -5.427682e+001 
982000000  -3.637704e+000  -6.594737e+001 
1008000000  -2.651838e+000  -7.192110e+001 
1034000000  -1.706274e+000  -7.781140e+001 
1060000000  -1.081316e+000  -8.521783e+001 
1086000000  -7.405756e-001  -9.248883e+001 
1112000000  -5.671990e-001  -9.862370e+001 
1138000000  -4.764523e-001  -1.040396e+002 
1164000000  -4.440673e-001  -1.091383e+002 
1190000000  -3.997132e-001  -1.144408e+002 
1216000000  -4.411351e-001  -1.193005e+002 
1242000000  -4.133262e-001  -1.235317e+002 
1268000000  -4.347727e-001  -1.280471e+002 
1294000000  -4.772771e-001  -1.331273e+002 
1320000000  -5.422016e-001  -1.377055e+002 
1346000000  -6.410687e-001  -1.416431e+002 
1372000000  -6.612307e-001  -1.458031e+002 
1398000000  -7.113135e-001  -1.507293e+002 
1424000000  -7.396318e-001  -1.558925e+002 
1450000000  -8.924887e-001  -1.602248e+002 
1476000000  -1.027769e+000  -1.647953e+002 
1502000000  -1.156466e+000  -1.700311e+002 
1528000000  -1.275195e+000  -1.750644e+002 
1554000000  -1.479849e+000  1.795284e+002 
1580000000  -1.810436e+000  1.752832e+002 
1606000000  -1.890848e+000  1.707792e+002 
1632000000  -1.921561e+000  1.645394e+002 
1658000000  -2.117482e+000  1.582823e+002 
1684000000  -2.475662e+000  1.500350e+002 
1710000000  -3.332021e+000  1.412606e+002 
1736000000  -4.238255e+000  1.381202e+002 
1762000000  -4.398305e+000  1.361091e+002 
1788000000  -4.235144e+000  1.277909e+002 
1814000000  -4.443634e+000  1.145788e+002 
1840000000  -5.431828e+000  1.000654e+002 
1866000000  -7.560187e+000  8.667123e+001 
1892000000  -1.015555e+001  7.963234e+001 
1918000000  -1.085844e+001  7.770502e+001 
1944000000  -1.072388e+001  6.241217e+001 
1970000000  -1.183724e+001  3.712401e+001 
1996000000  -1.281722e+001  4.894981e+000 
2022000000  -1.314870e+001  -2.421001e+001 
2048000000  -1.283209e+001  -5.172057e+001 
2074000000  -1.146928e+001  -7.607920e+001 
2100000000  -9.921962e+000  -9.271965e+001 
2126000000  -8.875457e+000  -1.054277e+002 
2152000000  -7.936699e+000  -1.159903e+002 
2178000000  -6.884173e+000  -1.265559e+002 
2204000000  -5.889716e+000  -1.342340e+002 
2230000000  -4.833130e+000  -1.425500e+002 
2256000000  -4.111886e+000  -1.537207e+002 
2282000000  -3.732480e+000  -1.652571e+002 
2308000000  -3.658202e+000  -1.729929e+002 
2334000000  -3.485228e+000  -1.786834e+002 
2360000000  -2.952812e+000  1.730665e+002 
2386000000  -2.454890e+000  1.633730e+002 
2412000000  -2.232152e+000  1.540752e+002 
2438000000  -2.314353e+000  1.442713e+002 
2464000000  -2.377959e+000  1.328976e+002 
2490000000  -2.582539e+000  1.206217e+002 
2516000000  -3.150490e+000  1.069622e+002 
2542000000  -4.252022e+000  9.101231e+001 
2568000000  -5.978780e+000  7.252425e+001 
2594000000  -8.459187e+000  5.292331e+001 
2620000000  -1.199752e+001  2.578934e+001 
2646000000  -1.622770e+001  -2.885876e+001 
2672000000  -1.673218e+001  -1.037499e+002 
2698000000  -1.481565e+001  -1.416944e+002 
2724000000  -1.226230e+001  -1.488582e+002 
2750000000  -9.181590e+000  -1.573998e+002 
2776000000  -7.149057e+000  -1.713993e+002 
2802000000  -6.097034e+000  1.744217e+002 
2828000000  -5.787097e+000  1.651744e+002 
2854000000  -5.892416e+000  1.616412e+002 
2880000000  -5.524814e+000  1.590316e+002 
2906000000  -4.737953e+000  1.547601e+002 
2932000000  -4.017682e+000  1.478930e+002 
2958000000  -3.976712e+000  1.401297e+002 
2984000000  -4.162142e+000  1.331415e+002 
3010000000  -4.197225e+000  1.294091e+002 
3036000000  -3.722486e+000  1.276205e+002 
3062000000  -3.324161e+000  1.240903e+002 
3088000000  -3.178134e+000  1.183486e+002 
3114000000  -3.144053e+000  1.122845e+002 
3140000000  -3.183952e+000  1.087140e+002 
3166000000  -3.060670e+000  1.062239e+002 
3192000000  -2.939431e+000  1.022033e+002 
3218000000  -2.795108e+000  9.712920e+001 
3244000000  -2.762426e+000  9.289776e+001 
3270000000  -2.802909e+000  8.937720e+001 
3296000000  -2.693460e+000  8.545886e+001 
3322000000  -2.504864e+000  8.085922e+001 
3348000000  -2.383388e+000  7.647195e+001 
3374000000  -2.437089e+000  7.229468e+001 
3400000000  -2.597550e+000  6.777480e+001 
3426000000  -2.508662e+000  6.407811e+001 
3452000000  -2.345130e+000  6.044526e+001 
3478000000  -2.273268e+000  5.571340e+001 
3504000000  -2.310997e+000  4.964346e+001 
3530000000  -2.299903e+000  4.386850e+001 
3556000000  -2.351862e+000  3.941604e+001 
3582000000  -2.403478e+000  3.469640e+001 
3608000000  -2.392193e+000  2.814697e+001 
3634000000  -2.264428e+000  2.188787e+001 
3660000000  -2.244577e+000  1.608484e+001 
3686000000  -2.424476e+000  9.701554e+000 
3712000000  -2.556735e+000  1.676827e+000 
3738000000  -2.626046e+000  -7.223765e+000 
3764000000  -2.753819e+000  -1.575110e+001 
3790000000  -2.985107e+000  -2.602067e+001 
3816000000  -3.205825e+000  -3.831730e+001 
3842000000  -3.403657e+000  -5.035996e+001 
3868000000  -3.824366e+000  -6.287716e+001 
3894000000  -4.525817e+000  -7.790800e+001 
3920000000  -5.276265e+000  -9.687618e+001 
3946000000  -6.033844e+000  -1.171617e+002 
3972000000  -6.769379e+000  -1.395222e+002 
3998000000  -7.171724e+000  -1.639557e+002 
4024000000  -7.479502e+000  1.716569e+002 
4050000000  -7.823126e+000  1.462533e+002 
4076000000  -7.858481e+000  1.223187e+002 
4102000000  -7.323231e+000  1.053528e+002 
4128000000  -6.853755e+000  9.086478e+001 
4154000000  -6.717762e+000  7.459681e+001 
4180000000  -6.437137e+000  5.799229e+001 
4206000000  -6.107398e+000  4.410001e+001 
4232000000  -5.939274e+000  3.170906e+001 
4258000000  -5.652529e+000  1.882896e+001 
4284000000  -5.382173e+000  6.999275e+000 
4310000000  -5.239901e+000  -3.302632e+000 
4336000000  -5.273456e+000  -1.478969e+001 
4362000000  -5.210522e+000  -2.740785e+001 
4388000000  -5.026887e+000  -3.903728e+001 
4414000000  -4.938760e+000  -5.095309e+001 
4440000000  -4.934240e+000  -6.449212e+001 
4466000000  -4.747758e+000  -7.856224e+001 
4492000000  -4.463955e+000  -9.115489e+001 
4518000000  -4.292439e+000  -1.040330e+002 
4544000000  -4.111169e+000  -1.175783e+002 
4570000000  -3.801751e+000  -1.308265e+002 
4596000000  -3.518463e+000  -1.420077e+002 
4622000000  -3.345055e+000  -1.533397e+002 
4648000000  -3.191837e+000  -1.648334e+002 
4674000000  -2.910450e+000  -1.757429e+002 
4700000000  -2.823353e+000  1.737078e+002 
4726000000  -2.640237e+000  1.626224e+002 
4752000000  -2.448004e+000  1.524224e+002 
4778000000  -2.280637e+000  1.440022e+002 
4804000000  -2.180734e+000  1.361280e+002 
4830000000  -2.140447e+000  1.282675e+002 
4856000000  -2.081416e+000  1.202865e+002 
4882000000  -2.078647e+000  1.124584e+002 
4908000000  -2.002163e+000  1.050138e+002 
4934000000  -1.836032e+000  9.838524e+001 
4960000000  -1.815938e+000  9.327743e+001 
4986000000  -1.905422e+000  8.758427e+001 
5012000000  -2.020830e+000  8.017364e+001 
5038000000  -1.887468e+000  7.327737e+001 
5064000000  -1.751794e+000  6.874072e+001 
5090000000  -1.824459e+000  6.565707e+001 
5116000000  -1.979879e+000  6.061708e+001 
5142000000  -2.039629e+000  5.416513e+001 
5168000000  -2.072388e+000  4.819678e+001 
5194000000  -2.156679e+000  4.311216e+001 
5220000000  -2.204804e+000  3.791442e+001 
5246000000  -2.164851e+000  3.329932e+001 
5272000000  -2.218381e+000  2.893896e+001 
5298000000  -2.430117e+000  2.461724e+001 
5324000000  -2.641900e+000  1.862681e+001 
5350000000  -2.647940e+000  1.325478e+001 
5376000000  -2.675753e+000  8.816975e+000 
5402000000  -2.888167e+000  4.032159e+000 
5428000000  -3.193587e+000  -1.400531e+000 
5454000000  -3.433636e+000  -7.502461e+000 
5480000000  -3.735096e+000  -1.331585e+001 
5506000000  -4.104667e+000  -1.988599e+001 
5532000000  -4.464506e+000  -2.831213e+001 
5558000000  -4.808508e+000  -3.612477e+001 
5584000000  -5.399252e+000  -4.359722e+001 
5610000000  -6.151813e+000  -5.293216e+001 
5636000000  -6.918456e+000  -6.419060e+001 
5662000000  -7.909914e+000  -7.611637e+001 
5688000000  -9.527769e+000  -9.116865e+001 
5714000000  -1.148796e+001  -1.133090e+002 
5740000000  -1.307021e+001  -1.424137e+002 
5766000000  -1.416856e+001  1.787473e+002 
5792000000  -1.242755e+001  1.348671e+002 
5818000000  -9.231733e+000  1.080643e+002 
5844000000  -7.175591e+000  9.085191e+001 
5870000000  -5.849618e+000  7.566413e+001 
5896000000  -4.846903e+000  6.160715e+001 
5922000000  -4.116849e+000  4.945606e+001 
5948000000  -3.578711e+000  3.779519e+001 
5974000000  -3.069931e+000  2.744567e+001 
6000000000  -2.759632e+000  1.910432e+001 
