#  HZ   S   DB   R     50.00 
! Rohde & Schwarz ZVA40 4Ports - Version 4.11 - 1145.1110k42 SN: 100302
! Date: 2022-08-19 12:22:59
! Measurements: S11 S21 S12 S22 
! 
 1.000000000000000E9    -1.783906924736980   1.564020117474906E1  -3.602767838142217E1   1.521175877772818E2  -3.609762471247876E1   1.531137407964751E2  -1.787005502176210   1.511022647088454E1  
 1.010000000000000E9    -1.785766371489183   4.254454749626556  -3.553853570774817E1   1.367364955945701E2  -3.558919384394660E1   1.379942005695181E2  -1.794201619869998   3.862478878100369  
 1.020000000000000E9    -1.789987298303540  -7.146706817466953  -3.546402312274126E1   1.238432962789162E2  -3.550596735214701E1   1.248219022938075E2  -1.798512065009422  -7.377079465709946  
 1.030000000000000E9    -1.808149923561634  -1.841917453181266E1  -3.501877565156652E1   1.134675037612616E2  -3.504974154614627E1   1.141553004297877E2  -1.805896383102677  -1.843177324479826E1  
 1.040000000000000E9    -1.818268112387994  -2.946910825235930E1  -3.446998848096319E1   1.001114887418064E2  -3.451054019469787E1   1.004610813518545E2  -1.805338754144099  -2.946871566921628E1  
 1.050000000000000E9    -1.810188388980536  -4.050109483647425E1  -3.446439441123505E1   8.789521179407340E1  -3.450615317253186E1   8.823222037908180E1  -1.801067821295957  -4.038141833680363E1  
 1.060000000000000E9    -1.814159195694726  -5.132676712287672E1  -3.442339062543358E1   7.867667011263779E1  -3.447269603797835E1   7.904367293893714E1  -1.803216151694777  -5.119707438939346E1  
 1.070000000000000E9    -1.836260530101766  -6.191837122842634E1  -3.401014191577593E1   6.983393157370624E1  -3.405633678668437E1   7.044196406286001E1  -1.812359807522370  -6.175280452903504E1  
 1.080000000000000E9    -1.841374536644372  -7.222732378393498E1  -3.390480488184613E1   6.136024599185927E1  -3.394269162305439E1   6.219861065528079E1  -1.818715342836485  -7.225166435130439E1  
 1.090000000000000E9    -1.851231917547275  -8.236810411198202E1  -3.312858829672133E1   5.560643533844837E1  -3.316366083663942E1   5.654832701639536E1  -1.846342617326111  -8.250067679262943E1  
 1.100000000000000E9    -1.870901317489627  -9.216324917791562E1  -3.214691459827121E1   4.550489569650848E1  -3.218683935515865E1   4.662653394825004E1  -1.875205992002652  -9.248619258257106E1  
 1.110000000000000E9    -1.884168086498209  -1.017893031975384E2  -3.148174399469664E1   3.410496749421520E1  -3.152195336540355E1   3.535625268050076E1  -1.893370711974312  -1.022496792747594E2  
 1.120000000000000E9    -1.917232454425494  -1.111783360547972E2  -3.086071283671889E1   2.460300092114437E1  -3.089091967377663E1   2.599616776716558E1  -1.931995505718086  -1.118406977949995E2  
 1.130000000000000E9    -1.934170219279571  -1.203458983161450E2  -3.000199836632887E1   1.352574048897546E1  -3.002807935471300E1   1.496826890457752E1  -1.969655539956358  -1.211753714673343E2  
 1.140000000000000E9    -1.964863954675226  -1.292295684330310E2  -2.935771186897926E1   8.556664715017759E-1  -2.938430545081178E1   2.171497985061287  -1.995082139522915  -1.302233305902033E2  
 1.150000000000000E9    -1.972613967695938  -1.381069812716574E2  -2.885797647509281E1  -1.265466924484551E1  -2.889769107530053E1  -1.127081974011203E1  -2.016137153791282  -1.390370853966805E2  
 1.160000000000000E9    -1.980754127077029  -1.468372720044698E2  -2.862248667513358E1  -2.546856986977574E1  -2.866748746322192E1  -2.395576301542095E1  -2.022764616050838  -1.478129769406270E2  
 1.170000000000000E9    -1.959447830098917  -1.554489326750520E2  -2.839831432804444E1  -3.762829259438056E1  -2.845368529546278E1  -3.598216950463849E1  -2.025279120389837  -1.563619151804631E2  
 1.180000000000000E9    -1.952157844273220  -1.641739213381522E2  -2.809094244370268E1  -5.058508198981814E1  -2.815805974062066E1  -4.894267724824439E1  -2.021866261618992  -1.648122364196287E2  
 1.190000000000000E9    -1.952742640162668  -1.727314247300818E2  -2.826963261730851E1  -6.430410000326778E1  -2.832554581487432E1  -6.239933393653741E1  -2.012530116822943  -1.731744609862541E2  
 1.200000000000000E9    -1.944948401238168   1.787529758064854E2  -2.848206951102456E1  -7.535190897766734E1  -2.853441601645953E1  -7.330959148677093E1  -2.023032293298194   1.785652290674774E2  
 1.210000000000000E9    -1.986361459333515   1.702284312617222E2  -2.870537704722213E1  -8.646957834549777E1  -2.874984341850093E1  -8.438364396555623E1  -2.032852221754931   1.704388160407687E2  
 1.220000000000000E9    -2.031994873673669   1.620248645785676E2  -2.894874283471443E1  -9.552627007173800E1  -2.898705806260706E1  -9.329253335823888E1  -2.062770005024035   1.623741765532059E2  
 1.230000000000000E9    -2.060836523974006   1.539049748219579E2  -2.892698520380280E1  -1.046838261621397E2  -2.896207558310733E1  -1.024989670101433E2  -2.107720149453533   1.545848860564390E2  
 1.240000000000000E9    -2.116324776741028   1.456121299137841E2  -2.897158859933026E1  -1.156154161629634E2  -2.900457719268839E1  -1.136924287077844E2  -2.130565200144086   1.468977081767803E2  
 1.250000000000000E9    -2.201380931824672   1.377379223484662E2  -2.954015538160967E1  -1.262927310690292E2  -2.959172217093783E1  -1.242073930127133E2  -2.144668466947056   1.391354691569433E2  
 1.260000000000000E9    -2.265178745994173   1.299806989984523E2  -3.002465003717504E1  -1.314012318681701E2  -3.009354261326861E1  -1.294665055430117E2  -2.199466206542336   1.312522565354295E2  
 1.270000000000000E9    -2.325120567076923   1.220562914616256E2  -2.995291222206802E1  -1.367716845218259E2  -3.003573462352476E1  -1.349257031577409E2  -2.284455226484847   1.234188634553874E2  
 1.280000000000000E9    -2.459437977259090   1.140538395260936E2  -2.994091697281885E1  -1.414701158048437E2  -3.000814851582317E1  -1.396905216098375E2  -2.405684726230133   1.159115736688235E2  
 1.290000000000000E9    -2.649723364993088   1.066587596609103E2  -2.913676034155766E1  -1.472060314576515E2  -2.919014988693356E1  -1.453825366016110E2  -2.502912786438412   1.083763236457259E2  
 1.300000000000000E9    -2.815210603931689   9.957390287498392E1  -2.859154186113670E1  -1.544758613281280E2  -2.865421204299952E1  -1.527800095911427E2  -2.644798718522672   1.008125615365392E2  
 1.310000000000000E9    -2.976141895352121   9.250878603991546E1  -2.762703895181246E1  -1.612896339150062E2  -2.769453670410019E1  -1.596407929954365E2  -2.805083587474162   9.350562444948486E1  
 1.320000000000000E9    -3.147447621842802   8.571205182793521E1  -2.666226766802982E1  -1.718464481213935E2  -2.672403509817114E1  -1.701288942316838E2  -3.016053622899382   8.640035353227222E1  
 1.330000000000000E9    -3.317868722832489   7.885536870835661E1  -2.556496972295167E1   1.777968633749723E2  -2.562502662949684E1   1.795053059686196E2  -3.170558924418390   7.968814148487691E1  
 1.340000000000000E9    -3.501059115128568   7.218371104337064E1  -2.432617913977832E1   1.612454054463339E2  -2.439105158799876E1   1.630011241557998E2  -3.343989730212977   7.285029674761826E1  
 1.350000000000000E9    -3.691365874964447   6.607646461029714E1  -2.409197691334994E1   1.451217472394170E2  -2.414838575632354E1   1.466845084540260E2  -3.510955399294747   6.669412281807931E1  
 1.360000000000000E9    -3.739935950133824   5.990546811970479E1  -2.369319551497403E1   1.313748392687821E2  -2.374118993232108E1   1.329385491377548E2  -3.622098674301851   6.008937587924559E1  
 1.370000000000000E9    -3.791230147935529   5.326968298379873E1  -2.319028956625097E1   1.155192646034090E2  -2.322694191052856E1   1.170978473186935E2  -3.761814807556421   5.380192194624598E1  
 1.380000000000000E9    -3.872999977215280   4.648792954511429E1  -2.289027348050534E1   9.912405171416626E1  -2.292604943778918E1   1.006541714883472E2  -3.865969298437654   4.788141346357715E1  
 1.390000000000000E9    -4.016488196901529   3.961708398231614E1  -2.265070614306864E1   8.156438402953683E1  -2.269905978537476E1   8.306344067950113E1  -3.876521394919693   4.181860786380683E1  
 1.400000000000000E9    -4.136951650515385   3.347416076560838E1  -2.279811733260726E1   6.347903551031826E1  -2.283228588773293E1   6.485607381724945E1  -3.916392456950643   3.525577575929500E1  
 1.410000000000000E9    -4.191523120767714   2.699606756133218E1  -2.306653781656787E1   4.743452495251938E1  -2.310319923671799E1   4.864541983785220E1  -3.976323237704597   2.877934385921873E1  
 1.420000000000000E9    -4.253351148368187   2.015736616020120E1  -2.328444335569340E1   3.134635156894890E1  -2.332315668311165E1   3.247230998342191E1  -4.030227868050352   2.276091847354658E1  
 1.430000000000000E9    -4.393262323871753   1.370658099952506E1  -2.352108806968237E1   1.424668013932914E1  -2.356929652208075E1   1.540860607439591E1  -4.052365724835271   1.626842971014553E1  
 1.440000000000000E9    -4.450617928185408   7.328910776886625  -2.403561161403901E1  -1.072526600844980  -2.406958573663748E1   1.168896969371141E-1  -4.126409717182052   1.039110256518136E1  
 1.450000000000000E9    -4.582184065100400   8.539451545852054E-1  -2.386366427652346E1  -1.666069740785080E1  -2.388894871032255E1  -1.545406592543293E1  -4.114993155639372   3.755492950375609  
 1.460000000000000E9    -4.666636075969872  -5.349816391659489  -2.384784869759629E1  -3.547095119878607E1  -2.387199804269259E1  -3.423976569052438E1  -4.233517482106589  -2.753524116781771  
 1.470000000000000E9    -4.754391961120621  -1.146757283137118E1  -2.410402892257365E1  -5.838131452453293E1  -2.412816177773229E1  -5.705199204443230E1  -4.367105427265911  -8.972739551773424  
 1.480000000000000E9    -4.902274107859816  -1.762196420296004E1  -2.502687588662943E1  -7.990807824300650E1  -2.504217546151597E1  -7.849806048551157E1  -4.477800263384201  -1.486969438195100E1  
 1.490000000000000E9    -5.035909105308151  -2.276281514339884E1  -2.625363499476255E1  -1.009932831479088E2  -2.626955842438128E1  -9.949834682288135E1  -4.590942751352217  -2.038521196223030E1  
 1.500000000000000E9    -4.965237015984283  -2.791859322348011E1  -2.815245371799220E1  -1.186452350032049E2  -2.817965266298333E1  -1.170224811139675E2  -4.620929079258016  -2.568220226196055E1  
 1.510000000000000E9    -4.871341713973891  -3.446731242507619E1  -2.884771572901671E1  -1.304120354038287E2  -2.888099838579135E1  -1.286821297588508E2  -4.542002814987755  -3.122388836555139E1  
 1.520000000000000E9    -4.905750107613792  -4.070916799245326E1  -2.945483771733787E1  -1.474148034470277E2  -2.949325719700183E1  -1.456552590398726E2  -4.486625177856919  -3.738673117109276E1  
 1.530000000000000E9    -4.946030446017693  -4.662634628344664E1  -2.989582437591919E1  -1.673418671677365E2  -2.994389826622405E1  -1.653934347246616E2  -4.472450974553013  -4.343334898871601E1  
 1.540000000000000E9    -4.925563206717688  -5.246965387894648E1  -3.070405039676469E1   1.678359348126780E2  -3.075055051116115E1   1.698371804548688E2  -4.457533025754022  -4.959349791886329E1  
 1.550000000000000E9    -4.874456875260256  -5.816119793678897E1  -3.344631798624936E1   1.396229917054767E2  -3.349503502049196E1   1.417970941895697E2  -4.390599356326534  -5.539925572070045E1  
 1.560000000000000E9    -4.726763797901358  -6.388897383589229E1  -3.657409689004860E1   1.238452282519516E2  -3.662566276330582E1   1.264357953062339E2  -4.256320063307817  -6.143585490062399E1  
 1.570000000000000E9    -4.510330062299124  -7.059919954582310E1  -4.219902277538463E1   1.172287320468966E2  -4.220150164728093E1   1.199569337419334E2  -4.088732198741443  -6.865756517660270E1  
 1.580000000000000E9    -4.446717521820687  -7.781009332771069E1  -4.120017952666914E1   1.511208512544289E2  -4.123914370279828E1   1.536942956927738E2  -4.088947054128560  -7.556467120476302E1  
 1.590000000000000E9    -4.377308189026805  -8.435887518804131E1  -3.779377548149491E1   1.404934880628773E2  -3.782902621948170E1   1.431773043858233E2  -4.012949116928829  -8.226331235737922E1  
 1.600000000000000E9    -4.254869237674980  -9.112661026502418E1  -3.755437606600061E1   1.164638086258595E2  -3.760020258366344E1   1.193080167065575E2  -4.011897302379340  -8.925191400981406E1  
 1.610000000000000E9    -4.195185116924895  -9.837620834385265E1  -3.705941377006096E1   1.035038975203086E2  -3.711185376277300E1   1.063827760644064E2  -3.984093244347330  -9.584928200168635E1  
 1.620000000000000E9    -4.138032503743941  -1.051465711184490E2  -3.631199044242306E1   8.683803639984885E1  -3.638363995278917E1   8.974168335201011E1  -3.943687883139349  -1.022126881902790E2  
 1.630000000000000E9    -4.080377952991062  -1.119394678851146E2  -3.671020449713956E1   6.587307667710753E1  -3.678087112592618E1   6.862076251445689E1  -3.896210580660954  -1.089901075715250E2  
 1.640000000000000E9    -3.989804639686293  -1.185397321435706E2  -3.713483926234789E1   5.014465871473225E1  -3.720668535263463E1   5.278906293987370E1  -3.866855205899420  -1.152904985822717E2  
 1.650000000000000E9    -3.867040227784445  -1.253847599492511E2  -3.742727567061945E1   3.205298033008400E1  -3.751977548912780E1   3.452827008676199E1  -3.779364726357239  -1.218936012520085E2  
 1.660000000000000E9    -3.802855473551320  -1.326325608580271E2  -3.958797436260861E1   1.668441894401794E1  -3.967143695440751E1   1.921534227598936E1  -3.713153553814189  -1.287063760836163E2  
 1.670000000000000E9    -3.775600562002792  -1.393355996549996E2  -4.120390143992249E1   2.194599327859874E1  -4.127605874978080E1   2.458190288661714E1  -3.691271221692388  -1.356212389668354E2  
 1.680000000000000E9    -3.706504307667606  -1.461714089499742E2  -3.949591289941869E1   1.805858814716132E1  -3.955828972610174E1   2.070021175277499E1  -3.690508824299533  -1.423755173256413E2  
 1.690000000000000E9    -3.714806072148861  -1.531163923675711E2  -3.922424663482602E1   6.307911091888658  -3.929921234432357E1   9.011286103810807  -3.684001038440802  -1.490224497905525E2  
 1.700000000000000E9    -3.735896302283736  -1.593672534261087E2  -3.860062480857538E1   1.499885228443949  -3.866194125960724E1   4.103265501480455  -3.668474753603754  -1.557050642942411E2  
 1.710000000000000E9    -3.709188103954301  -1.655556879439779E2  -3.722102384806085E1  -1.153098234989350E1  -3.729037715397464E1  -9.102417875837322  -3.634859787205028  -1.622655951378204E2  
 1.720000000000000E9    -3.681102020581453  -1.720390777729710E2  -3.731786192488167E1  -2.956967121094051E1  -3.739686801762481E1  -2.725981702216261E1  -3.579987737694016  -1.689605294135266E2  
 1.730000000000000E9    -3.652313296055771  -1.784209304693139E2  -3.827936904764435E1  -3.198732059319533E1  -3.838828480219062E1  -2.973191499267416E1  -3.520128036041733  -1.759613949859146E2  
 1.740000000000000E9    -3.649199828032688   1.752834342998621E2  -3.769813651098141E1  -3.787841511550236E1  -3.782767622867804E1  -3.553299512006662E1  -3.506225991704140   1.770167712295502E2  
 1.750000000000000E9    -3.610625809458119   1.690275241847483E2  -3.649478232048255E1  -4.034282751480724E1  -3.660842358324078E1  -3.785571296535854E1  -3.486814114587851   1.702521959921112E2  
 1.760000000000000E9    -3.576915763347246   1.628504626615616E2  -3.520055016741817E1  -5.371609996374895E1  -3.529084792525428E1  -5.123427514618729E1  -3.486630813492297   1.635846791616884E2  
 1.770000000000000E9    -3.516202446819589   1.564277302166413E2  -3.435922470622879E1  -6.381927353927644E1  -3.442454529677794E1  -6.142157951056647E1  -3.443832496675373   1.569724425648586E2  
 1.780000000000000E9    -3.488187629174208   1.499780362134426E2  -3.356176450160542E1  -7.838788609365679E1  -3.361960483220000E1  -7.615977917676564E1  -3.409499829408724   1.504563079915755E2  
 1.790000000000000E9    -3.481539292731253   1.436580609679478E2  -3.368439069229037E1  -8.664496250785962E1  -3.373361519164460E1  -8.457381297271843E1  -3.353408121748987   1.438901020518947E2  
 1.800000000000000E9    -3.431442490678907   1.374186788995126E2  -3.240732467810307E1  -9.689300846516996E1  -3.246459738061461E1  -9.480839582803469E1  -3.321367934903330   1.372078862499364E2  
 1.810000000000000E9    -3.383679484587961   1.309892891915945E2  -3.192144787581799E1  -1.130482572102252E2  -3.197496718890789E1  -1.111123964410828E2  -3.304500696033142   1.308026741921685E2  
 1.820000000000000E9    -3.354543569342773   1.245117312940953E2  -3.213233229927189E1  -1.235589014433587E2  -3.218401584759472E1  -1.217983423963917E2  -3.266245849810094   1.243689119452320E2  
 1.830000000000000E9    -3.335777841469344   1.180863954158567E2  -3.171739277839390E1  -1.318724134057559E2  -3.177516319804145E1  -1.303231229581678E2  -3.266297987394752   1.176927169349224E2  
 1.840000000000000E9    -3.349094046050270   1.115448232511419E2  -3.141679256973877E1  -1.423337313039000E2  -3.148736186070952E1  -1.411518439019740E2  -3.311705936741184   1.113804614602515E2  
 1.850000000000000E9    -3.382266927537065   1.054583128354503E2  -3.069224750272700E1  -1.523592755543581E2  -3.077336373319656E1  -1.515963289258288E2  -3.342905483445934   1.053378495246460E2  
 1.860000000000000E9    -3.365179288408194   9.936683781185425E1  -3.069708276505506E1  -1.672945666533453E2  -3.077021133999451E1  -1.670753340280847E2  -3.370927046972601   9.907872830697704E1  
 1.870000000000000E9    -3.383405904521450   9.290815969226684E1  -3.130176908706478E1  -1.748034026433531E2  -3.137472014054879E1  -1.749561547567554E2  -3.408595718270480   9.283183278769650E1  
 1.880000000000000E9    -3.464667340202638   8.684013115709217E1  -3.106451788305149E1   1.789679486277578E2  -3.114864150508456E1   1.784247538522941E2  -3.451748155957205   8.684263634403220E1  
 1.890000000000000E9    -3.484856286937352   8.105743996532621E1  -3.082714163949563E1   1.733562840858128E2  -3.089084019790954E1   1.724835416270407E2  -3.466721980699494   8.047854685554368E1  
 1.900000000000000E9    -3.510946478036375   7.492286040354757E1  -3.026228177768736E1   1.669686790239996E2  -3.032585336262462E1   1.657855760899918E2  -3.536113029032029   7.399257627861114E1  
 1.910000000000000E9    -3.569810192463395   6.877731338374500E1  -2.941157964016022E1   1.591525528593970E2  -2.947849263545330E1   1.577635545331577E2  -3.594735391099008   6.752340572070256E1  
 1.920000000000000E9    -3.615587471904139   6.248808559336400E1  -2.852922001234738E1   1.480965120010635E2  -2.859248268160558E1   1.465145115580844E2  -3.703051676844305   6.108995067478586E1  
 1.930000000000000E9    -3.720784953742416   5.624741819204105E1  -2.815776318867476E1   1.381593576676996E2  -2.821664476192647E1   1.366370244043520E2  -3.760519313860936   5.479720554603270E1  
 1.940000000000000E9    -3.835787044722455   5.004358785200846E1  -2.759344950539547E1   1.265502669701112E2  -2.764461200203609E1   1.252178593380690E2  -3.817714406781770   4.802030972518635E1  
 1.950000000000000E9    -3.946245438769160   4.390057824632611E1  -2.747330182005334E1   1.161367724701411E2  -2.752197309110869E1   1.150755127813596E2  -3.919946907631650   4.102619885950463E1  
 1.960000000000000E9    -4.068602093816735   3.745102298704535E1  -2.700330824513966E1   1.077702804879983E2  -2.704412807073907E1   1.070241747499738E2  -4.049089099861558   3.419931945335650E1  
 1.970000000000000E9    -4.275598755214492   3.113168589672235E1  -2.635641227921948E1   9.604761092451145E1  -2.639850205404957E1   9.572150898107125E1  -4.228243375304762   2.724255053553019E1  
 1.980000000000000E9    -4.476831180062475   2.483556493649990E1  -2.646520404588391E1   8.467609904942482E1  -2.650164453729053E1   8.456436012139484E1  -4.459777742558708   2.097015535245719E1  
 1.990000000000000E9    -4.739438319711991   1.907664006957014E1  -2.597887339280644E1   7.986483716548669E1  -2.602594373156407E1   8.121452937598880E1  -4.607443058742591   1.511472376344325E1  
