#  HZ   S   DB   R     50.00 
! Rohde & Schwarz ZVA40 4Ports - Version 4.11 - 1145.1110k42 SN: 100302
! Date: 2022-08-19 12:23:37
! Measurements: S11 S21 S12 S22 
! 
 1.000000000000000E9    -1.740961627962361   1.700596390526085E1  -3.580787154528912E1  -2.046419098453333E1  -3.587102305802092E1  -1.956125252909595E1  -1.752121471862909   1.578258247049776E1  
 1.010000000000000E9    -1.742267029493410   5.806213946172282  -3.549635273855691E1  -3.520635718232738E1  -3.554603822520765E1  -3.393246910352671E1  -1.761200155811084   4.690578668391370  
 1.020000000000000E9    -1.742374034632193  -5.417111250684394  -3.545036502906206E1  -4.779625600174149E1  -3.550140080793177E1  -4.684720034546436E1  -1.766723801612246  -6.393628046750596  
 1.030000000000000E9    -1.763833474565701  -1.653337747595133E1  -3.503361947533158E1  -5.890013215935805E1  -3.506454881195631E1  -5.814614863206239E1  -1.775756519663578  -1.727737647438479E1  
 1.040000000000000E9    -1.774803906658381  -2.742734615043672E1  -3.438129972254990E1  -7.347021501659783E1  -3.442211390641062E1  -7.303466491950671E1  -1.775648691945013  -2.814004793831154E1  
 1.050000000000000E9    -1.765898598223621  -3.829028783990110E1  -3.423542767327984E1  -8.867554028900258E1  -3.427986111972342E1  -8.827752764619000E1  -1.770107993063962  -3.884601588799396E1  
 1.060000000000000E9    -1.769409722770120  -4.900959125546912E1  -3.409105800986962E1  -1.021198496167231E2  -3.413724301395275E1  -1.017263548918834E2  -1.765060107928033  -4.940486957355977E1  
 1.070000000000000E9    -1.785615025202222  -5.953891341330208E1  -3.379726752669139E1  -1.164105290150627E2  -3.383692318201067E1  -1.158215182219490E2  -1.755972503094308  -5.983044604327403E1  
 1.080000000000000E9    -1.794708259160025  -6.979922215285498E1  -3.382469917969379E1  -1.315175125513641E2  -3.385317246049886E1  -1.306774301676780E2  -1.756607832273712  -7.013249552487922E1  
 1.090000000000000E9    -1.810475643886128  -7.988793813236879E1  -3.379487808904969E1  -1.455543753260200E2  -3.383517000574015E1  -1.446755172476228E2  -1.757856028615340  -8.019832903149798E1  
 1.100000000000000E9    -1.829733963686229  -8.965949729551682E1  -3.394932297957907E1  -1.598897159546554E2  -3.399343803312718E1  -1.588542117288010E2  -1.760958136253001  -9.007479349390293E1  
 1.110000000000000E9    -1.844709524029532  -9.923861802794501E1  -3.404226150004470E1  -1.744586811460175E2  -3.407585657900349E1  -1.732273015857060E2  -1.745665235257374  -9.976868875274212E1  
 1.120000000000000E9    -1.874027155933927  -1.086636857196776E2  -3.452395649490220E1   1.722139388160687E2  -3.455869593855799E1   1.735846612552044E2  -1.745691868809187  -1.093189916528688E2  
 1.130000000000000E9    -1.889146787242869  -1.179151079997867E2  -3.502320921497170E1   1.616384517702690E2  -3.504027463036811E1   1.630412695208255E2  -1.737861909786975  -1.187917347994203E2  
 1.140000000000000E9    -1.928434565951784  -1.268726002142773E2  -3.533223149256108E1   1.503987651355972E2  -3.536293932979392E1   1.518400621193480E2  -1.728200223624632  -1.280620086643002E2  
 1.150000000000000E9    -1.932756549680302  -1.357949290342049E2  -3.575199075497226E1   1.415217267147738E2  -3.578626306857802E1   1.431038486004712E2  -1.726729101631944  -1.372796351687689E2  
 1.160000000000000E9    -1.936130503474787  -1.446626100786612E2  -3.560583917662074E1   1.324602568076891E2  -3.565900489587606E1   1.341310584491496E2  -1.738005536713789  -1.463565969644388E2  
 1.170000000000000E9    -1.921086394025323  -1.534169205134346E2  -3.520138927188031E1   1.223111186645892E2  -3.526163333462603E1   1.241690956259670E2  -1.753926852081552  -1.551719985175205E2  
 1.180000000000000E9    -1.922346200537848  -1.623430793397456E2  -3.515798100311385E1   1.100092030929332E2  -3.522324880198600E1   1.118761743889171E2  -1.768794488449154  -1.638379862378598E2  
 1.190000000000000E9    -1.932268249913766  -1.710238074427151E2  -3.511722014373483E1   9.846320013989215E1  -3.517886833026677E1   1.003736492481379E2  -1.773959451737864  -1.723471923486725E2  
 1.200000000000000E9    -1.934525254952975  -1.796945873589934E2  -3.505989067804061E1   8.519871006533913E1  -3.512413860818658E1   8.715896962341269E1  -1.784200725023005   1.792553147783951E2  
 1.210000000000000E9    -1.986614720035213   1.716752374464069E2  -3.531382052698581E1   7.090004170367780E1  -3.536028334176482E1   7.299087682934811E1  -1.809886367012880   1.710616318739130E2  
 1.220000000000000E9    -2.045548560181391   1.633145456657548E2  -3.612797466079714E1   5.906366025346037E1  -3.617719271096948E1   6.134593708891834E1  -1.825102771173433   1.629957737293387E2  
 1.230000000000000E9    -2.079759557960636   1.551147896099787E2  -3.629815026101055E1   4.988243914200357E1  -3.632481216700758E1   5.205783095257976E1  -1.843162060640248   1.549835757514457E2  
 1.240000000000000E9    -2.141308271067903   1.466987401618335E2  -3.635941648067065E1   3.683374075853611E1  -3.640427228913118E1   3.902176140910552E1  -1.872582552356921   1.470876101449037E2  
 1.250000000000000E9    -2.226521279177620   1.386658987950891E2  -3.703061102013565E1   2.056684050166427E1  -3.707264689189758E1   2.265377670006807E1  -1.898276798364190   1.392811535395929E2  
 1.260000000000000E9    -2.314126906808832   1.308138403684731E2  -3.859014829517016E1   4.616848938604734  -3.867442701401870E1   6.550753757581142  -1.930080478486918   1.314675184247528E2  
 1.270000000000000E9    -2.382305937738177   1.228350440029438E2  -4.004015603056341E1  -2.253044472429260  -4.012736723727824E1  -5.085491650817708E-1  -1.972925600249299   1.237109562014146E2  
 1.280000000000000E9    -2.529856656800237   1.148375437287043E2  -4.131119432660920E1  -1.510420989850225E1  -4.139723696232495E1  -1.327163161599887E1  -2.024412103984211   1.160126481483514E2  
 1.290000000000000E9    -2.707969188189505   1.074657868515051E2  -4.293628674903629E1  -2.862606646858499E1  -4.300969706434908E1  -2.691880455971931E1  -2.086629339264102   1.082932003182361E2  
 1.300000000000000E9    -2.877464421200694   1.003879530908372E2  -4.440586310402475E1  -5.505711827782140E1  -4.447330734018019E1  -5.359473081936123E1  -2.145747047728317   1.005530468092939E2  
 1.310000000000000E9    -3.025132819819060   9.343237925048898E1  -4.646077318396014E1  -9.449157561882970E1  -4.654568258440161E1  -9.301956118508333E1  -2.225119645135866   9.277864778461357E1  
 1.320000000000000E9    -3.163771546197791   8.676215329112667E1  -4.333761045299924E1  -1.542617496007793E2  -4.340087781678022E1  -1.527934129630860E2  -2.354656836341004   8.487475535884984E1  
 1.330000000000000E9    -3.281657782133685   7.982557589515791E1  -3.827675450143465E1   1.657270733268569E2  -3.835453239983588E1   1.672245666882831E2  -2.485750810546828   7.725730683259367E1  
 1.340000000000000E9    -3.422772390391079   7.292659238440659E1  -3.363314184257021E1   1.327753670283980E2  -3.370043822728997E1   1.346004509853354E2  -2.629253187272739   6.969492556811932E1  
 1.350000000000000E9    -3.586944864129081   6.657681889178164E1  -3.047041729215208E1   1.007178061066325E2  -3.052784164163059E1   1.024906153812130E2  -2.797163207553816   6.211049046096092E1  
 1.360000000000000E9    -3.611279132481347   6.005129083995854E1  -2.894889176318172E1   7.598911475719487E1  -2.899418418715745E1   7.777330049131093E1  -2.986910838306065   5.458806708716558E1  
 1.370000000000000E9    -3.684811222954447   5.311159861299501E1  -2.762182284675522E1   5.876968669393672E1  -2.766238465005258E1   6.060121598874308E1  -3.205765194340852   4.738493184578843E1  
 1.380000000000000E9    -3.756807306850699   4.639269521742875E1  -2.584520760158353E1   4.021754352683511E1  -2.588598467534813E1   4.199339534275357E1  -3.414030792481165   4.047008255270524E1  
 1.390000000000000E9    -3.869046650555070   3.929597854090985E1  -2.464288117510839E1   2.136084532000657E1  -2.468922968043581E1   2.307721355184707E1  -3.595380611640044   3.380568051920306E1  
 1.400000000000000E9    -3.995214055903013   3.284824645487805E1  -2.383421093865574E1   2.797342959527541  -2.386628854997514E1   4.414264014984407  -3.781680742009355   2.699312963334982E1  
 1.410000000000000E9    -4.071360126337006   2.608197493901604E1  -2.333153919993717E1  -1.384793775073388E1  -2.337037865329418E1  -1.262467397475088E1  -3.956925851353011   2.045609741952850E1  
 1.420000000000000E9    -4.177560655486222   1.933540558307437E1  -2.278497610720594E1  -2.785750771628326E1  -2.282113298573617E1  -2.671765475779057E1  -4.103012966397224   1.397875162710960E1  
 1.430000000000000E9    -4.316342129322069   1.312955573434753E1  -2.228330468982371E1  -4.237316279882044E1  -2.232646399650639E1  -4.120863523136161E1  -4.322349205668838   7.251879547965526  
 1.440000000000000E9    -4.342740051975595   6.707253623697528  -2.185845164651211E1  -5.671060174923866E1  -2.189039496434410E1  -5.553965379730775E1  -4.529201960297881   1.335995052185785  
 1.450000000000000E9    -4.457668529281956   1.692313501393720E-1  -2.128150967854120E1  -6.883795730742570E1  -2.130194705369285E1  -6.760545266221058E1  -4.682160242672809  -5.330879799007316  
 1.460000000000000E9    -4.527357989607664  -6.185465723709097  -2.050535496055693E1  -8.380574645358995E1  -2.052609964428668E1  -8.256662943459565E1  -5.053755297352970  -1.159072377352856E1  
 1.470000000000000E9    -4.662009116473865  -1.252593004001123E1  -2.011613026721444E1  -1.002644996694915E2  -2.014564630808713E1  -9.891144327024597E1  -5.393516819721932  -1.678944055049020E1  
 1.480000000000000E9    -4.823826481620453  -1.836362096781516E1  -1.989006942621986E1  -1.162237429879550E2  -1.990805901467678E1  -1.147740437165196E2  -5.673764147156841  -2.145070531771739E1  
 1.490000000000000E9    -4.975697671923399  -2.340422240990548E1  -1.992729321080213E1  -1.332033280190408E2  -1.994672089012444E1  -1.317020019293926E2  -5.858336227921114  -2.549241234042576E1  
 1.500000000000000E9    -4.912589826848432  -2.816293673769267E1  -2.044810831595854E1  -1.489315409650530E2  -2.047001676867927E1  -1.472389162486459E2  -5.940281190424295  -2.922930395727780E1  
 1.510000000000000E9    -4.795140780005720  -3.429884563414183E1  -2.096095145113413E1  -1.595251765516097E2  -2.099741136239672E1  -1.577824877686911E2  -5.812875232099316  -3.342638018948824E1  
 1.520000000000000E9    -4.755171923066020  -4.026213959960594E1  -2.105563628930789E1  -1.712203964039157E2  -2.109550885841783E1  -1.693420592778076E2  -5.693644736211524  -3.875522709912153E1  
 1.530000000000000E9    -4.727072780751017  -4.646681466335433E1  -2.122653981087402E1   1.753662368882172E2  -2.127815115948845E1   1.773474811961287E2  -5.642809496726552  -4.417005641401834E1  
 1.540000000000000E9    -4.703621150629869  -5.232014777432078E1  -2.151252481557185E1   1.630819742662958E2  -2.156474634788944E1   1.652165873852991E2  -5.580043903229975  -4.925943012724478E1  
 1.550000000000000E9    -4.661347791350956  -5.839809656541499E1  -2.213760267991398E1   1.496839771214757E2  -2.219725024654975E1   1.519385427590048E2  -5.427329336829693  -5.454488108035789E1  
 1.560000000000000E9    -4.556767700452757  -6.391108545404546E1  -2.294157717721440E1   1.380179457803208E2  -2.299387801440802E1   1.404973102206726E2  -5.210126339561739  -6.025113167943153E1  
 1.570000000000000E9    -4.334516344193312  -7.031657441639202E1  -2.401730367869205E1   1.305679418705593E2  -2.406130923997980E1   1.330617142035793E2  -5.027385333715039  -6.719445382515110E1  
 1.580000000000000E9    -4.239433828465799  -7.765014095069681E1  -2.453317623057776E1   1.248151771695636E2  -2.457298403079436E1   1.274782385859836E2  -4.967377893870316  -7.384339385996591E1  
 1.590000000000000E9    -4.229615296737998  -8.418315436318964E1  -2.476931642039845E1   1.194049707826172E2  -2.479555991210762E1   1.222010768641748E2  -4.878979716295328  -8.000854805334961E1  
 1.600000000000000E9    -4.129751915531516  -9.068073262647724E1  -2.489793164999520E1   1.133631145313560E2  -2.492566054911260E1   1.162770218739840E2  -4.760461687881539  -8.707874985327672E1  
 1.610000000000000E9    -4.081183621250474  -9.770786069531921E1  -2.450120290571802E1   1.068533886427064E2  -2.453803675718699E1   1.097815854912938E2  -4.816044584937030  -9.383386169594543E1  
 1.620000000000000E9    -4.050015675409316  -1.042152157169280E2  -2.417107578765221E1   9.727622208167990E1  -2.423586514376411E1   1.002113843080560E2  -4.829332278104803  -9.960750233623973E1  
 1.630000000000000E9    -4.002514534231175  -1.106830339279455E2  -2.427182738246851E1   8.594482458604297E1  -2.433687574840949E1   8.872787949020312E1  -4.716449853814522  -1.052069789358761E2  
 1.640000000000000E9    -3.937590279040998  -1.170037381917853E2  -2.435628245973195E1   7.737976159353914E1  -2.441744825339093E1   7.999468101473286E1  -4.614256842969904  -1.115950709858704E2  
 1.650000000000000E9    -3.825326915851751  -1.234251289840077E2  -2.453008796539978E1   6.601088602343032E1  -2.461708808392319E1   6.847160195181580E1  -4.534222497126495  -1.176167748565637E2  
 1.660000000000000E9    -3.746047403032902  -1.302874056821405E2  -2.497119418686136E1   5.704333136807095E1  -2.505186683703531E1   5.957649134993052E1  -4.379929176890967  -1.239189096943023E2  
 1.670000000000000E9    -3.709708289882088  -1.366577343128363E2  -2.529775379506426E1   4.902402075225291E1  -2.537919657325729E1   5.165459338634992E1  -4.322163517136494  -1.304710180504389E2  
 1.680000000000000E9    -3.619338687174617  -1.432695464019362E2  -2.559567896487848E1   4.061215796800580E1  -2.566154190598242E1   4.324907395785485E1  -4.234284987486445  -1.371331667588149E2  
 1.690000000000000E9    -3.638597795111674  -1.500164612500062E2  -2.570788982002422E1   3.386496671511298E1  -2.577613905865795E1   3.663754778853954E1  -4.219918494558313  -1.436457154321843E2  
 1.700000000000000E9    -3.658738284180833  -1.558173577273008E2  -2.544541401633128E1   2.484799487650500E1  -2.550978889582615E1   2.752193782608786E1  -4.176415395248548  -1.499086122095598E2  
 1.710000000000000E9    -3.604887120162454  -1.617966392180171E2  -2.558152340408582E1   1.200596647346576E1  -2.565416886066634E1   1.452353602108137E1  -4.106967215147248  -1.560883634287472E2  
 1.720000000000000E9    -3.563021040535705  -1.679411263945070E2  -2.622348625350821E1   1.232823159899146  -2.629780458450981E1   3.595757477221857  -3.997209242107755  -1.624436577504705E2  
 1.730000000000000E9    -3.505727456623071  -1.741755929960074E2  -2.689340876291456E1  -7.717170112724879  -2.699031117071817E1  -5.392130802624265  -3.869197805105346  -1.692549713946838E2  
 1.740000000000000E9    -3.483632905936080   1.796764679232571E2  -2.746419948984620E1  -1.682204651433337E1  -2.757854982940767E1  -1.452185155893675E1  -3.806154653595212  -1.760538237111859E2  
 1.750000000000000E9    -3.441482072716330   1.735240913501900E2  -2.812403495507606E1  -2.366947258141969E1  -2.821743783428212E1  -2.123088664287243E1  -3.751817334675674   1.772427035026896E2  
 1.760000000000000E9    -3.398627121917151   1.675019098135436E2  -2.817013928299681E1  -3.250598317262741E1  -2.825901180937388E1  -3.007758819807033E1  -3.701393133963470   1.707291115146514E2  
 1.770000000000000E9    -3.316783030003124   1.612125407262009E2  -2.892672110580114E1  -4.328191180615033E1  -2.898399515844628E1  -4.098490123397256E1  -3.631302539056111   1.642674192458451E2  
 1.780000000000000E9    -3.278344916089284   1.547709257841750E2  -2.957102386686259E1  -5.344802477692443E1  -2.963244764140343E1  -5.106545945743905E1  -3.549953671666290   1.579834931150958E2  
 1.790000000000000E9    -3.265274875207784   1.484628319999421E2  -3.066793019446951E1  -6.543844609135186E1  -3.070539822602526E1  -6.321723773044271E1  -3.411533793318685   1.515967055183895E2  
 1.800000000000000E9    -3.220459331453841   1.421630331452661E2  -3.272085089564737E1  -7.584739317374883E1  -3.278226525331673E1  -7.381127679645799E1  -3.286894493795160   1.448824454865871E2  
 1.810000000000000E9    -3.191940534061572   1.358759353269280E2  -3.465154222204075E1  -7.925800823847433E1  -3.470859151347126E1  -7.730465888737773E1  -3.197593618104473   1.380755676988225E2  
 1.820000000000000E9    -3.149821223045962   1.294553511368063E2  -3.775358745943136E1  -8.108122042822215E1  -3.783354824090037E1  -7.921065002530972E1  -3.120671774439807   1.313712075763177E2  
 1.830000000000000E9    -3.128834442328632   1.229710296183243E2  -3.880738576098860E1  -6.520862514615486E1  -3.887853324792911E1  -6.378075472720143E1  -3.089634265881177   1.245373904000889E2  
 1.840000000000000E9    -3.154137021187323   1.164790375557813E2  -3.879530213285428E1  -5.885903819842458E1  -3.887746918462560E1  -5.773783077822220E1  -3.076554587390014   1.180407972876606E2  
 1.850000000000000E9    -3.186782807756659   1.102933990731092E2  -3.845976666559974E1  -5.370933940544980E1  -3.853799162663920E1  -5.302921987850229E1  -3.066390155540878   1.115472702520226E2  
 1.860000000000000E9    -3.202953790824055   1.041384931577904E2  -3.840038105247241E1  -5.139223131809207E1  -3.847060596832751E1  -5.132518368291859E1  -3.081924891679343   1.050049735774737E2  
 1.870000000000000E9    -3.236240423719743   9.788763013042635E1  -3.815697040725569E1  -4.643525365959262E1  -3.823179819956515E1  -4.682338447695786E1  -3.100879552023450   9.846072958568685E1  
 1.880000000000000E9    -3.292686460322376   9.181111401298115E1  -3.732682581914996E1  -4.166446964069470E1  -3.741482007444738E1  -4.241242381811964E1  -3.137028307657219   9.202673730060882E1  
 1.890000000000000E9    -3.328052260829995   8.582598774563107E1  -3.635645633916975E1  -3.625020822732366E1  -3.641871294277372E1  -3.740080389307457E1  -3.171746790704140   8.540192385047280E1  
 1.900000000000000E9    -3.380031415409627   7.972241827934266E1  -3.417266908226351E1  -3.655310329790313E1  -3.422985741364904E1  -3.773466276264276E1  -3.259251122760634   7.873181198580694E1  
 1.910000000000000E9    -3.449468083364892   7.344639610606676E1  -3.243350514028601E1  -4.163782236334817E1  -3.249957726763478E1  -4.316911631885133E1  -3.354414949175281   7.236682281822759E1  
 1.920000000000000E9    -3.543997924120788   6.721315704848387E1  -3.085060518495314E1  -5.126669081003418E1  -3.091785507694884E1  -5.298168390081311E1  -3.417753534241630   6.586115774615695E1  
 1.930000000000000E9    -3.654573314609593   6.112865126654129E1  -3.023653484294218E1  -5.967437571913967E1  -3.029527729114963E1  -6.133675778042871E1  -3.490421926996842   5.931905616304207E1  
 1.940000000000000E9    -3.768214577755841   5.490128258717093E1  -2.915899139020913E1  -6.763818319527027E1  -2.921854476744094E1  -6.913442160908788E1  -3.558659679552055   5.244505925255550E1  
 1.950000000000000E9    -3.888668599706548   4.864938405887818E1  -2.874105471456276E1  -7.892207202674440E1  -2.880093707097557E1  -8.006904714514778E1  -3.681007127718383   4.525828158339675E1  
 1.960000000000000E9    -4.044636752684151   4.212462252709733E1  -2.807253348973998E1  -8.494914215803433E1  -2.812758211884967E1  -8.572365660003298E1  -3.845043695358825   3.850131682882381E1  
 1.970000000000000E9    -4.268530514921233   3.580543881863381E1  -2.745979917302824E1  -9.511046617172700E1  -2.750958881679877E1  -9.546408660270713E1  -4.028782023431713   3.138910045535048E1  
 1.980000000000000E9    -4.476275654869316   2.951660026663486E1  -2.737788922586913E1  -1.022966339735552E2  -2.743238812550985E1  -1.023048603045190E2  -4.289248541331434   2.523456397662330E1  
 1.990000000000000E9    -4.736864260496896   2.355948611179959E1  -2.643391823195669E1  -1.059734212318038E2  -2.648853884246843E1  -1.045512617156191E2  -4.436571792595512   1.954735238324793E1  
